Time [s], Analyzer Name, Decoded Protocol Result
0.000017093750000,I2S / PCM,Ch 2: 0x0001F0
0.000027500000000,I2S / PCM,Ch 1: 0x00092D
0.000037937500000,I2S / PCM,Ch 2: 0x0007C4
0.000048343750000,I2S / PCM,Ch 1: 0x0001AB
0.000058781250000,I2S / PCM,Ch 2: 0x0004E8
0.000069187500000,I2S / PCM,Ch 1: 0xFFFEA6
0.000079625000000,I2S / PCM,Ch 2: 0xFFFF90
0.000090031250000,I2S / PCM,Ch 1: 0x0006CB
0.000100468750000,I2S / PCM,Ch 2: 0x00096B
0.000110875000000,I2S / PCM,Ch 1: 0x000881
0.000121312500000,I2S / PCM,Ch 2: 0x0008D6
0.000131718750000,I2S / PCM,Ch 1: 0x00079D
0.000142156250000,I2S / PCM,Ch 2: 0x00061A
0.000152593750000,I2S / PCM,Ch 1: 0x000325
0.000163000000000,I2S / PCM,Ch 2: 0x00033C
0.000173437500000,I2S / PCM,Ch 1: 0x000561
0.000183843750000,I2S / PCM,Ch 2: 0x00064C
0.000194281250000,I2S / PCM,Ch 1: 0x0004F9
0.000204687500000,I2S / PCM,Ch 2: 0x000409
0.000215125000000,I2S / PCM,Ch 1: 0x0002F3
0.000225531250000,I2S / PCM,Ch 2: 0x0004E8
0.000235968750000,I2S / PCM,Ch 1: 0xFFFEA6
0.000246375000000,I2S / PCM,Ch 2: 0xFFFF90
0.000256812500000,I2S / PCM,Ch 1: 0x0006CB
0.000267218750000,I2S / PCM,Ch 2: 0x00096B
0.000277656250000,I2S / PCM,Ch 1: 0xFFFBCC
0.000288062500000,I2S / PCM,Ch 2: 0xFFFBCE
0.000298500000000,I2S / PCM,Ch 1: 0x000701
0.000308937500000,I2S / PCM,Ch 2: 0x00056D
0.000319343750000,I2S / PCM,Ch 1: 0x0004C9
0.000329781250000,I2S / PCM,Ch 2: 0x00056E
0.000340187500000,I2S / PCM,Ch 1: 0x0002D4
0.000350625000000,I2S / PCM,Ch 2: 0x0000B0
0.000361031250000,I2S / PCM,Ch 1: 0x000439
0.000371468750000,I2S / PCM,Ch 2: 0x00032A
0.000381875000000,I2S / PCM,Ch 1: 0x00008C
0.000392312500000,I2S / PCM,Ch 2: 0x000061
0.000402718750000,I2S / PCM,Ch 1: 0x000B35
0.000413156250000,I2S / PCM,Ch 2: 0x000B5F
0.000423562500000,I2S / PCM,Ch 1: 0x000350
0.000434000000000,I2S / PCM,Ch 2: 0x0002B8
0.000444406250000,I2S / PCM,Ch 1: 0xFFFBCC
0.000454843750000,I2S / PCM,Ch 2: 0xFFFBCE
0.000465281250000,I2S / PCM,Ch 1: 0x000701
0.000475687500000,I2S / PCM,Ch 2: 0x00013A
0.000486125000000,I2S / PCM,Ch 1: 0x000436
0.000496531250000,I2S / PCM,Ch 2: 0x0004AB
0.000506968750000,I2S / PCM,Ch 1: 0x0004D1
0.000517375000000,I2S / PCM,Ch 2: 0x0007E0
0.000527812500000,I2S / PCM,Ch 1: 0x00033E
0.000538218750000,I2S / PCM,Ch 2: 0x00054A
0.000548656250000,I2S / PCM,Ch 1: 0x00002E
0.000559062500000,I2S / PCM,Ch 2: 0x000061
0.000569500000000,I2S / PCM,Ch 1: 0x000B35
0.000579906250000,I2S / PCM,Ch 2: 0x000B5F
0.000590343750000,I2S / PCM,Ch 1: 0x000350
0.000600750000000,I2S / PCM,Ch 2: 0x0002B8
0.000611187500000,I2S / PCM,Ch 1: 0xFFFE27
0.000621625000000,I2S / PCM,Ch 2: 0xFFFE91
0.000632031250000,I2S / PCM,Ch 1: 0x000265
0.000642468750000,I2S / PCM,Ch 2: 0x00034D
0.000652875000000,I2S / PCM,Ch 1: 0x000027
0.000663312500000,I2S / PCM,Ch 2: 0xFFFF2B
0.000673718750000,I2S / PCM,Ch 1: 0x000ADD
0.000684156250000,I2S / PCM,Ch 2: 0x000C4C
0.000694562500000,I2S / PCM,Ch 1: 0x000221
0.000705000000000,I2S / PCM,Ch 2: 0x000363
0.000715406250000,I2S / PCM,Ch 1: 0x0001AA
0.000725843750000,I2S / PCM,Ch 2: 0x0003FE
0.000736250000000,I2S / PCM,Ch 1: 0x0003DB
0.000746687500000,I2S / PCM,Ch 2: 0x0007B4
0.000757093750000,I2S / PCM,Ch 1: 0x0003C2
0.000767531250000,I2S / PCM,Ch 2: 0x0004A1
0.000777968750000,I2S / PCM,Ch 1: 0xFFFE27
0.000788375000000,I2S / PCM,Ch 2: 0xFFFE91
0.000798812500000,I2S / PCM,Ch 1: 0x000265
0.000809218750000,I2S / PCM,Ch 2: 0xFFFC69
0.000819656250000,I2S / PCM,Ch 1: 0x0003A2
0.000830062500000,I2S / PCM,Ch 2: 0x00021A
0.000840500000000,I2S / PCM,Ch 1: 0xFFFFF0
0.000850906250000,I2S / PCM,Ch 2: 0xFFFF8C
0.000861343750000,I2S / PCM,Ch 1: 0x0002BB
0.000871750000000,I2S / PCM,Ch 2: 0x000279
0.000882187500000,I2S / PCM,Ch 1: 0x0001C3
0.000892593750000,I2S / PCM,Ch 2: 0x0003FE
0.000903031250000,I2S / PCM,Ch 1: 0x0003DB
0.000913468750000,I2S / PCM,Ch 2: 0x0007B4
0.000923875000000,I2S / PCM,Ch 1: 0x0003C2
0.000934312500000,I2S / PCM,Ch 2: 0x0004A1
0.000944718750000,I2S / PCM,Ch 1: 0x00048C
0.000955156250000,I2S / PCM,Ch 2: 0x00050A
0.000965562500000,I2S / PCM,Ch 1: 0xFFFE15
0.000976000000000,I2S / PCM,Ch 2: 0xFFFF58
0.000986406250000,I2S / PCM,Ch 1: 0x00000B
0.000996843750000,I2S / PCM,Ch 2: 0x0000A2
0.001007250000000,I2S / PCM,Ch 1: 0x00007B
0.001017687500000,I2S / PCM,Ch 2: 0x0000C5
0.001028093750000,I2S / PCM,Ch 1: 0x0005E3
0.001038531250000,I2S / PCM,Ch 2: 0x00049E
0.001048937500000,I2S / PCM,Ch 1: 0x000201
0.001059375000000,I2S / PCM,Ch 2: 0x0005BD
0.001069812500000,I2S / PCM,Ch 1: 0xFFFC02
0.001080218750000,I2S / PCM,Ch 2: 0xFFFD26
0.001090656250000,I2S / PCM,Ch 1: 0x0002C0
0.001101062500000,I2S / PCM,Ch 2: 0x0003F3
0.001111500000000,I2S / PCM,Ch 1: 0x00048C
0.001121906250000,I2S / PCM,Ch 2: 0x00050A
0.001132343750000,I2S / PCM,Ch 1: 0xFFFE15
0.001142750000000,I2S / PCM,Ch 2: 0x000028
0.001153187500000,I2S / PCM,Ch 1: 0xFFFCF7
0.001163593750000,I2S / PCM,Ch 2: 0xFFFA7A
0.001174031250000,I2S / PCM,Ch 1: 0x000158
0.001184437500000,I2S / PCM,Ch 2: 0x0000A9
0.001194875000000,I2S / PCM,Ch 1: 0xFFF7BB
0.001205281250000,I2S / PCM,Ch 2: 0xFFF8B0
0.001215718750000,I2S / PCM,Ch 1: 0x0004BD
0.001226125000000,I2S / PCM,Ch 2: 0x0005BD
0.001236562500000,I2S / PCM,Ch 1: 0xFFFC02
0.001247000000000,I2S / PCM,Ch 2: 0xFFFD26
0.001257406250000,I2S / PCM,Ch 1: 0x0002C0
0.001267843750000,I2S / PCM,Ch 2: 0x0003F3
0.001278250000000,I2S / PCM,Ch 1: 0xFFFF84
0.001288687500000,I2S / PCM,Ch 2: 0x0000F0
0.001299093750000,I2S / PCM,Ch 1: 0xFFFCB1
0.001309531250000,I2S / PCM,Ch 2: 0xFFFBE2
0.001319937500000,I2S / PCM,Ch 1: 0x000200
0.001330375000000,I2S / PCM,Ch 2: 0x000117
0.001340781250000,I2S / PCM,Ch 1: 0x00014D
0.001351218750000,I2S / PCM,Ch 2: 0x000388
0.001361625000000,I2S / PCM,Ch 1: 0xFFFFA0
0.001372062500000,I2S / PCM,Ch 2: 0x0000A0
0.001382500000000,I2S / PCM,Ch 1: 0xFFFC92
0.001392906250000,I2S / PCM,Ch 2: 0xFFFDCF
0.001403343750000,I2S / PCM,Ch 1: 0x0000BE
0.001413750000000,I2S / PCM,Ch 2: 0x000152
0.001424187500000,I2S / PCM,Ch 1: 0x00015E
0.001434593750000,I2S / PCM,Ch 2: 0x0002E2
0.001445031250000,I2S / PCM,Ch 1: 0xFFFF84
0.001455437500000,I2S / PCM,Ch 2: 0x0000F0
0.001465875000000,I2S / PCM,Ch 1: 0xFFFCB1
0.001476281250000,I2S / PCM,Ch 2: 0x000501
0.001486718750000,I2S / PCM,Ch 1: 0xFFFCDD
0.001497125000000,I2S / PCM,Ch 2: 0xFFFD1E
0.001507562500000,I2S / PCM,Ch 1: 0x0001FB
0.001518000000000,I2S / PCM,Ch 2: 0x000382
0.001528406250000,I2S / PCM,Ch 1: 0x0000B1
0.001538843750000,I2S / PCM,Ch 2: 0x000138
0.001549250000000,I2S / PCM,Ch 1: 0xFFFF8B
0.001559687500000,I2S / PCM,Ch 2: 0xFFFDCF
0.001570093750000,I2S / PCM,Ch 1: 0x0000BE
0.001580531250000,I2S / PCM,Ch 2: 0x000152
0.001590937500000,I2S / PCM,Ch 1: 0x00015E
0.001601375000000,I2S / PCM,Ch 2: 0x0002E2
0.001611781250000,I2S / PCM,Ch 1: 0xFFFF3E
0.001622218750000,I2S / PCM,Ch 2: 0x000050
0.001632625000000,I2S / PCM,Ch 1: 0xFFFFBE
0.001643062500000,I2S / PCM,Ch 2: 0xFFFF83
0.001653468750000,I2S / PCM,Ch 1: 0xFFFDCD
0.001663906250000,I2S / PCM,Ch 2: 0xFFFF86
0.001674343750000,I2S / PCM,Ch 1: 0x000547
0.001684750000000,I2S / PCM,Ch 2: 0x000506
0.001695187500000,I2S / PCM,Ch 1: 0x0003AD
0.001705593750000,I2S / PCM,Ch 2: 0x000398
0.001716031250000,I2S / PCM,Ch 1: 0x0006E8
0.001726437500000,I2S / PCM,Ch 2: 0x0004F5
0.001736875000000,I2S / PCM,Ch 1: 0x000B7F
0.001747281250000,I2S / PCM,Ch 2: 0x000B84
0.001757718750000,I2S / PCM,Ch 1: 0xFFFED8
0.001768125000000,I2S / PCM,Ch 2: 0xFFFE29
0.001778562500000,I2S / PCM,Ch 1: 0xFFFF3E
0.001788968750000,I2S / PCM,Ch 2: 0x000050
0.001799406250000,I2S / PCM,Ch 1: 0xFFFFBE
0.001809812500000,I2S / PCM,Ch 2: 0x000068
0.001820250000000,I2S / PCM,Ch 1: 0x000259
0.001830687500000,I2S / PCM,Ch 2: 0x000307
0.001841093750000,I2S / PCM,Ch 1: 0xFFFAAB
0.001851531250000,I2S / PCM,Ch 2: 0xFFFB94
0.001861937500000,I2S / PCM,Ch 1: 0x0007C8
0.001872375000000,I2S / PCM,Ch 2: 0x0004DB
0.001882781250000,I2S / PCM,Ch 1: 0x000515
0.001893218750000,I2S / PCM,Ch 2: 0x0004F5
0.001903625000000,I2S / PCM,Ch 1: 0x000B7F
0.001914062500000,I2S / PCM,Ch 2: 0x000B84
0.001924468750000,I2S / PCM,Ch 1: 0xFFFED8
0.001934906250000,I2S / PCM,Ch 2: 0xFFFE29
0.001945312500000,I2S / PCM,Ch 1: 0xFFFD69
0.001955750000000,I2S / PCM,Ch 2: 0xFFFEC1
0.001966187500000,I2S / PCM,Ch 1: 0x00040D
0.001976593750000,I2S / PCM,Ch 2: 0x000493
0.001987031250000,I2S / PCM,Ch 1: 0x000240
0.001997437500000,I2S / PCM,Ch 2: 0x000292
0.002007875000000,I2S / PCM,Ch 1: 0x000301
0.002018281250000,I2S / PCM,Ch 2: 0x0001CF
0.002028718750000,I2S / PCM,Ch 1: 0x00026C
0.002039125000000,I2S / PCM,Ch 2: 0x000063
0.002049562500000,I2S / PCM,Ch 1: 0xFFFF31
0.002059968750000,I2S / PCM,Ch 2: 0x0004EA
0.002070406250000,I2S / PCM,Ch 1: 0x000068
0.002080812500000,I2S / PCM,Ch 2: 0xFFFFB0
0.002091250000000,I2S / PCM,Ch 1: 0x0002A1
0.002101656250000,I2S / PCM,Ch 2: 0x000314
0.002112093750000,I2S / PCM,Ch 1: 0xFFFD69
0.002122500000000,I2S / PCM,Ch 2: 0xFFFEC1
0.002132937500000,I2S / PCM,Ch 1: 0x00040D
0.002143375000000,I2S / PCM,Ch 2: 0x0004C2
0.002153781250000,I2S / PCM,Ch 1: 0x0003F7
0.002164218750000,I2S / PCM,Ch 2: 0x000291
0.002174625000000,I2S / PCM,Ch 1: 0xFFFF2C
0.002185062500000,I2S / PCM,Ch 2: 0xFFFE6D
0.002195468750000,I2S / PCM,Ch 1: 0xFFFFF3
0.002205906250000,I2S / PCM,Ch 2: 0xFFFEF4
0.002216312500000,I2S / PCM,Ch 1: 0x00039F
0.002226750000000,I2S / PCM,Ch 2: 0x0004EA
0.002237156250000,I2S / PCM,Ch 1: 0x000068
0.002247593750000,I2S / PCM,Ch 2: 0xFFFFB0
0.002258000000000,I2S / PCM,Ch 1: 0x0002A1
0.002268437500000,I2S / PCM,Ch 2: 0x000314
0.002278875000000,I2S / PCM,Ch 1: 0x0001E1
0.002289281250000,I2S / PCM,Ch 2: 0x0002A3
0.002299718750000,I2S / PCM,Ch 1: 0x0000DE
0.002310125000000,I2S / PCM,Ch 2: 0x00016E
0.002320562500000,I2S / PCM,Ch 1: 0x0000F1
0.002330968750000,I2S / PCM,Ch 2: 0xFFFF86
0.002341406250000,I2S / PCM,Ch 1: 0xFFFC81
0.002351812500000,I2S / PCM,Ch 2: 0xFFFB6F
0.002362250000000,I2S / PCM,Ch 1: 0x000462
0.002372656250000,I2S / PCM,Ch 2: 0x0002B1
0.002383093750000,I2S / PCM,Ch 1: 0x000036
0.002393500000000,I2S / PCM,Ch 2: 0x0005D9
0.002403937500000,I2S / PCM,Ch 1: 0xFFFED8
0.002414343750000,I2S / PCM,Ch 2: 0xFFFFD7
0.002424781250000,I2S / PCM,Ch 1: 0x0003AC
0.002435218750000,I2S / PCM,Ch 2: 0x000436
0.002445625000000,I2S / PCM,Ch 1: 0x0001E1
0.002456062500000,I2S / PCM,Ch 2: 0x0002A3
0.002466468750000,I2S / PCM,Ch 1: 0x0000DE
0.002476906250000,I2S / PCM,Ch 2: 0x000392
0.002487312500000,I2S / PCM,Ch 1: 0xFFFEDE
0.002497750000000,I2S / PCM,Ch 2: 0xFFFEB5
0.002508156250000,I2S / PCM,Ch 1: 0x000208
0.002518593750000,I2S / PCM,Ch 2: 0x0001CE
0.002529000000000,I2S / PCM,Ch 1: 0x00020C
0.002539437500000,I2S / PCM,Ch 2: 0x000216
0.002549843750000,I2S / PCM,Ch 1: 0x0006A9
0.002560281250000,I2S / PCM,Ch 2: 0x0005D9
0.002570687500000,I2S / PCM,Ch 1: 0xFFFED8
0.002581125000000,I2S / PCM,Ch 2: 0xFFFFD7
0.002591562500000,I2S / PCM,Ch 1: 0x0003AC
0.002601968750000,I2S / PCM,Ch 2: 0x000436
0.002612406250000,I2S / PCM,Ch 1: 0xFFFC9B
0.002622812500000,I2S / PCM,Ch 2: 0xFFFEBD
0.002633250000000,I2S / PCM,Ch 1: 0x0000CF
0.002643656250000,I2S / PCM,Ch 2: 0xFFFEF1
0.002654093750000,I2S / PCM,Ch 1: 0x000492
0.002664500000000,I2S / PCM,Ch 2: 0x000492
0.002674937500000,I2S / PCM,Ch 1: 0x0005A6
0.002685343750000,I2S / PCM,Ch 2: 0x00017E
0.002695781250000,I2S / PCM,Ch 1: 0x000347
0.002706187500000,I2S / PCM,Ch 2: 0x00034D
0.002716625000000,I2S / PCM,Ch 1: 0x00056B
0.002727031250000,I2S / PCM,Ch 2: 0xFFFC36
0.002737468750000,I2S / PCM,Ch 1: 0x00046C
0.002747906250000,I2S / PCM,Ch 2: 0x0001FA
0.002758312500000,I2S / PCM,Ch 1: 0x0002D9
0.002768750000000,I2S / PCM,Ch 2: 0x0002C2
0.002779156250000,I2S / PCM,Ch 1: 0xFFFC9B
0.002789593750000,I2S / PCM,Ch 2: 0xFFFEBD
0.002800000000000,I2S / PCM,Ch 1: 0x0000CF
0.002810437500000,I2S / PCM,Ch 2: 0x000179
0.002820843750000,I2S / PCM,Ch 1: 0x00041D
0.002831281250000,I2S / PCM,Ch 2: 0x0002FA
0.002841687500000,I2S / PCM,Ch 1: 0x0004DA
0.002852125000000,I2S / PCM,Ch 2: 0x000446
0.002862531250000,I2S / PCM,Ch 1: 0x000652
0.002872968750000,I2S / PCM,Ch 2: 0x000458
0.002883375000000,I2S / PCM,Ch 1: 0xFFFC90
0.002893812500000,I2S / PCM,Ch 2: 0xFFFC36
0.002904250000000,I2S / PCM,Ch 1: 0x00046C
0.002914656250000,I2S / PCM,Ch 2: 0x0001FA
0.002925093750000,I2S / PCM,Ch 1: 0x0002D9
0.002935500000000,I2S / PCM,Ch 2: 0x0002C2
0.002945937500000,I2S / PCM,Ch 1: 0x0001C0
0.002956343750000,I2S / PCM,Ch 2: 0x0001A1
0.002966781250000,I2S / PCM,Ch 1: 0x0005AC
0.002977187500000,I2S / PCM,Ch 2: 0x000445
0.002987625000000,I2S / PCM,Ch 1: 0x000323
0.002998031250000,I2S / PCM,Ch 2: 0x00050B
0.003008468750000,I2S / PCM,Ch 1: 0x00020B
0.003018875000000,I2S / PCM,Ch 2: 0x0002D9
0.003029312500000,I2S / PCM,Ch 1: 0x000490
0.003039750000000,I2S / PCM,Ch 2: 0x000593
0.003050156250000,I2S / PCM,Ch 1: 0x00047D
0.003060593750000,I2S / PCM,Ch 2: 0xFFFFF3
0.003071000000000,I2S / PCM,Ch 1: 0x000488
0.003081437500000,I2S / PCM,Ch 2: 0x0004A0
0.003091843750000,I2S / PCM,Ch 1: 0x0001B1
0.003102281250000,I2S / PCM,Ch 2: 0x000065
0.003112687500000,I2S / PCM,Ch 1: 0x0001C0
0.003123125000000,I2S / PCM,Ch 2: 0x0001A1
0.003133531250000,I2S / PCM,Ch 1: 0x0005AC
0.003143968750000,I2S / PCM,Ch 2: 0xFFFEC9
0.003154375000000,I2S / PCM,Ch 1: 0x0002EB
0.003164812500000,I2S / PCM,Ch 2: 0x0001EF
0.003175218750000,I2S / PCM,Ch 1: 0x000106
0.003185656250000,I2S / PCM,Ch 2: 0x00012F
0.003196093750000,I2S / PCM,Ch 1: 0xFFFDC5
0.003206500000000,I2S / PCM,Ch 2: 0xFFFDFA
0.003216937500000,I2S / PCM,Ch 1: 0x0001E5
0.003227343750000,I2S / PCM,Ch 2: 0xFFFFF3
0.003237781250000,I2S / PCM,Ch 1: 0x000488
0.003248187500000,I2S / PCM,Ch 2: 0x0004A0
0.003258625000000,I2S / PCM,Ch 1: 0x0001B1
0.003269031250000,I2S / PCM,Ch 2: 0x000065
0.003279468750000,I2S / PCM,Ch 1: 0x000296
0.003289875000000,I2S / PCM,Ch 2: 0x0002B4
0.003300312500000,I2S / PCM,Ch 1: 0xFFFC05
0.003310718750000,I2S / PCM,Ch 2: 0xFFFBE3
0.003321156250000,I2S / PCM,Ch 1: 0x00037A
0.003331593750000,I2S / PCM,Ch 2: 0x000382
0.003342000000000,I2S / PCM,Ch 1: 0xFFFE16
0.003352437500000,I2S / PCM,Ch 2: 0xFFFEC8
0.003362843750000,I2S / PCM,Ch 1: 0xFFFE49
0.003373281250000,I2S / PCM,Ch 2: 0xFFFEFE
0.003383687500000,I2S / PCM,Ch 1: 0x000454
0.003394125000000,I2S / PCM,Ch 2: 0x000722
0.003404531250000,I2S / PCM,Ch 1: 0x0002A7
0.003414968750000,I2S / PCM,Ch 2: 0x000274
0.003425375000000,I2S / PCM,Ch 1: 0x000559
0.003435812500000,I2S / PCM,Ch 2: 0x0004D1
0.003446218750000,I2S / PCM,Ch 1: 0x000296
0.003456656250000,I2S / PCM,Ch 2: 0x0002B4
0.003467062500000,I2S / PCM,Ch 1: 0xFFFC05
0.003477500000000,I2S / PCM,Ch 2: 0x000080
0.003487906250000,I2S / PCM,Ch 1: 0x000009
0.003498343750000,I2S / PCM,Ch 2: 0xFFFF5E
0.003508781250000,I2S / PCM,Ch 1: 0xFFFEEB
0.003519187500000,I2S / PCM,Ch 2: 0xFFFDF9
0.003529625000000,I2S / PCM,Ch 1: 0xFFFB03
0.003540031250000,I2S / PCM,Ch 2: 0xFFFB2F
0.003550468750000,I2S / PCM,Ch 1: 0x000613
0.003560875000000,I2S / PCM,Ch 2: 0x000722
0.003571312500000,I2S / PCM,Ch 1: 0x0002A7
0.003581718750000,I2S / PCM,Ch 2: 0x000274
0.003592156250000,I2S / PCM,Ch 1: 0x000559
0.003602562500000,I2S / PCM,Ch 2: 0x0004D1
0.003613000000000,I2S / PCM,Ch 1: 0xFFFFF1
0.003623406250000,I2S / PCM,Ch 2: 0x00000B
0.003633843750000,I2S / PCM,Ch 1: 0xFFFE81
0.003644281250000,I2S / PCM,Ch 2: 0xFFFEC3
0.003654687500000,I2S / PCM,Ch 1: 0x0006E1
0.003665125000000,I2S / PCM,Ch 2: 0x00066D
0.003675531250000,I2S / PCM,Ch 1: 0x000636
0.003685968750000,I2S / PCM,Ch 2: 0x000727
0.003696375000000,I2S / PCM,Ch 1: 0x000354
0.003706812500000,I2S / PCM,Ch 2: 0x0003A4
0.003717218750000,I2S / PCM,Ch 1: 0x000021
0.003727656250000,I2S / PCM,Ch 2: 0x000100
0.003738062500000,I2S / PCM,Ch 1: 0xFFFE5C
0.003748500000000,I2S / PCM,Ch 2: 0xFFFEC4
0.003758906250000,I2S / PCM,Ch 1: 0xFFFCB2
0.003769343750000,I2S / PCM,Ch 2: 0xFFFCED
0.003779750000000,I2S / PCM,Ch 1: 0xFFFFF1
0.003790187500000,I2S / PCM,Ch 2: 0x00000B
0.003800625000000,I2S / PCM,Ch 1: 0xFFFE81
0.003811031250000,I2S / PCM,Ch 2: 0x0001C8
0.003821468750000,I2S / PCM,Ch 1: 0xFFF84C
0.003831875000000,I2S / PCM,Ch 2: 0xFFF6A5
0.003842312500000,I2S / PCM,Ch 1: 0xFFFEF7
0.003852718750000,I2S / PCM,Ch 2: 0xFFFF4D
0.003863156250000,I2S / PCM,Ch 1: 0x00028F
0.003873562500000,I2S / PCM,Ch 2: 0xFFFF8B
0.003884000000000,I2S / PCM,Ch 1: 0x0001A8
0.003894406250000,I2S / PCM,Ch 2: 0x000100
0.003904843750000,I2S / PCM,Ch 1: 0xFFFE5C
0.003915250000000,I2S / PCM,Ch 2: 0xFFFEC4
0.003925687500000,I2S / PCM,Ch 1: 0xFFFCB2
0.003936093750000,I2S / PCM,Ch 2: 0xFFFCED
0.003946531250000,I2S / PCM,Ch 1: 0x0001EA
0.003956968750000,I2S / PCM,Ch 2: 0xFFFFB8
0.003967375000000,I2S / PCM,Ch 1: 0x000226
0.003977812500000,I2S / PCM,Ch 2: 0x0000C7
0.003988218750000,I2S / PCM,Ch 1: 0xFFFD6B
0.003998656250000,I2S / PCM,Ch 2: 0xFFFD09
0.004009062500000,I2S / PCM,Ch 1: 0x0001C2
0.004019500000000,I2S / PCM,Ch 2: 0x0002BC
0.004029906250000,I2S / PCM,Ch 1: 0x00020D
0.004040343750000,I2S / PCM,Ch 2: 0x000335
0.004050750000000,I2S / PCM,Ch 1: 0xFFFF09
0.004061187500000,I2S / PCM,Ch 2: 0xFFFDCB
0.004071593750000,I2S / PCM,Ch 1: 0x0009FF
0.004082031250000,I2S / PCM,Ch 2: 0x000AF2
0.004092468750000,I2S / PCM,Ch 1: 0x000220
0.004102875000000,I2S / PCM,Ch 2: 0x00037E
0.004113312500000,I2S / PCM,Ch 1: 0x0001EA
0.004123718750000,I2S / PCM,Ch 2: 0xFFFFB8
0.004134156250000,I2S / PCM,Ch 1: 0x000226
0.004144562500000,I2S / PCM,Ch 2: 0xFFFF84
0.004155000000000,I2S / PCM,Ch 1: 0x000262
0.004165406250000,I2S / PCM,Ch 2: 0x00028F
0.004175843750000,I2S / PCM,Ch 1: 0xFFFF68
0.004186250000000,I2S / PCM,Ch 2: 0xFFFF43
0.004196687500000,I2S / PCM,Ch 1: 0x000539
0.004207093750000,I2S / PCM,Ch 2: 0x00052C
0.004217531250000,I2S / PCM,Ch 1: 0xFFFF79
0.004227937500000,I2S / PCM,Ch 2: 0xFFFDCB
0.004238375000000,I2S / PCM,Ch 1: 0x0009FF
0.004248812500000,I2S / PCM,Ch 2: 0x000AF2
0.004259218750000,I2S / PCM,Ch 1: 0x000220
0.004269656250000,I2S / PCM,Ch 2: 0x00037E
0.004280062500000,I2S / PCM,Ch 1: 0x000044
0.004290500000000,I2S / PCM,Ch 2: 0x0000FD
0.004300906250000,I2S / PCM,Ch 1: 0x00010A
0.004311343750000,I2S / PCM,Ch 2: 0x0000B7
0.004321750000000,I2S / PCM,Ch 1: 0xFFFDEB
0.004332187500000,I2S / PCM,Ch 2: 0xFFFC89
0.004342593750000,I2S / PCM,Ch 1: 0x00021D
0.004353031250000,I2S / PCM,Ch 2: 0xFFFF1D
0.004363437500000,I2S / PCM,Ch 1: 0x00010F
0.004373875000000,I2S / PCM,Ch 2: 0xFFFF7F
0.004384281250000,I2S / PCM,Ch 1: 0x0000AB
0.004394718750000,I2S / PCM,Ch 2: 0x0000A4
0.004405156250000,I2S / PCM,Ch 1: 0xFFFFDF
0.004415562500000,I2S / PCM,Ch 2: 0x000047
0.004426000000000,I2S / PCM,Ch 1: 0x0000D1
0.004436406250000,I2S / PCM,Ch 2: 0x000114
0.004446843750000,I2S / PCM,Ch 1: 0x000044
0.004457250000000,I2S / PCM,Ch 2: 0x0000FD
0.004467687500000,I2S / PCM,Ch 1: 0x00010A
0.004478093750000,I2S / PCM,Ch 2: 0x0000D1
0.004488531250000,I2S / PCM,Ch 1: 0x00018B
0.004498937500000,I2S / PCM,Ch 2: 0x000197
0.004509375000000,I2S / PCM,Ch 1: 0xFFFC79
0.004519781250000,I2S / PCM,Ch 2: 0xFFFD9B
0.004530218750000,I2S / PCM,Ch 1: 0x0001F2
0.004540625000000,I2S / PCM,Ch 2: 0x00025B
0.004551062500000,I2S / PCM,Ch 1: 0x000092
0.004561500000000,I2S / PCM,Ch 2: 0x0000A4
0.004571906250000,I2S / PCM,Ch 1: 0xFFFFDF
0.004582343750000,I2S / PCM,Ch 2: 0x000047
0.004592750000000,I2S / PCM,Ch 1: 0x0000D1
0.004603187500000,I2S / PCM,Ch 2: 0x000114
0.004613593750000,I2S / PCM,Ch 1: 0x000513
0.004624031250000,I2S / PCM,Ch 2: 0x00072E
0.004634437500000,I2S / PCM,Ch 1: 0xFFF9D3
0.004644875000000,I2S / PCM,Ch 2: 0xFFFC47
0.004655281250000,I2S / PCM,Ch 1: 0x000769
0.004665718750000,I2S / PCM,Ch 2: 0x0007DF
0.004676125000000,I2S / PCM,Ch 1: 0x0001D4
0.004686562500000,I2S / PCM,Ch 2: 0x00044D
0.004697000000000,I2S / PCM,Ch 1: 0x000162
0.004707406250000,I2S / PCM,Ch 2: 0x0002F2
0.004717843750000,I2S / PCM,Ch 1: 0x00032E
0.004728250000000,I2S / PCM,Ch 2: 0x000267
0.004738687500000,I2S / PCM,Ch 1: 0xFFFB1B
0.004749093750000,I2S / PCM,Ch 2: 0xFFFE2B
0.004759531250000,I2S / PCM,Ch 1: 0x00019F
0.004769937500000,I2S / PCM,Ch 2: 0x00017E
0.004780375000000,I2S / PCM,Ch 1: 0x000513
0.004790781250000,I2S / PCM,Ch 2: 0x00072E
0.004801218750000,I2S / PCM,Ch 1: 0xFFF9D3
0.004811625000000,I2S / PCM,Ch 2: 0x0001E6
0.004822062500000,I2S / PCM,Ch 1: 0x000147
0.004832468750000,I2S / PCM,Ch 2: 0x0003E6
